                    * exemplo de netlist com fonte senoidal
                    Transient Analysis  Tue Apr 23 12:12:23  2024
--------------------------------------------------------------------------------
Index   time            V(1)            time            v1#branch       
--------------------------------------------------------------------------------
0	0.000000e+00	0.000000e+00	0.000000e+00	0.000000e+00	
1	6.283185e-04	6.283185e-04	6.283185e-04	-6.28318e-06	
2	1.256637e-03	1.256637e-03	1.256637e-03	-1.25664e-05	
3	2.513274e-03	2.513271e-03	2.513274e-03	-2.51327e-05	
4	5.026548e-03	5.026527e-03	5.026548e-03	-5.02653e-05	
5	1.005310e-02	1.005293e-02	1.005310e-02	-1.00529e-04	
6	2.010619e-02	2.010484e-02	2.010619e-02	-2.01048e-04	
7	4.021239e-02	4.020155e-02	4.021239e-02	-4.02015e-04	
8	8.042477e-02	8.033810e-02	8.042477e-02	-8.03381e-04	
9	1.432566e-01	1.427671e-01	1.432566e-01	-1.42767e-03	
10	2.060885e-01	2.046327e-01	2.060885e-01	-2.04633e-03	
11	2.689203e-01	2.656907e-01	2.689203e-01	-2.65691e-03	
12	3.317522e-01	3.257002e-01	3.317522e-01	-3.25700e-03	
13	3.945840e-01	3.844242e-01	3.945840e-01	-3.84424e-03	
14	4.574159e-01	4.416311e-01	4.574159e-01	-4.41631e-03	
15	5.202477e-01	4.970951e-01	5.202477e-01	-4.97095e-03	
16	5.830796e-01	5.505973e-01	5.830796e-01	-5.50597e-03	
17	6.459114e-01	6.019265e-01	6.459114e-01	-6.01927e-03	
18	7.087433e-01	6.508802e-01	7.087433e-01	-6.50880e-03	
19	7.715752e-01	6.972652e-01	7.715752e-01	-6.97265e-03	
20	8.344070e-01	7.408984e-01	8.344070e-01	-7.40898e-03	
21	8.972389e-01	7.816076e-01	8.972389e-01	-7.81608e-03	
22	9.600707e-01	8.192321e-01	9.600707e-01	-8.19232e-03	
23	1.022903e+00	8.536235e-01	1.022903e+00	-8.53624e-03	
24	1.085734e+00	8.846461e-01	1.085734e+00	-8.84646e-03	
25	1.148566e+00	9.121773e-01	1.148566e+00	-9.12177e-03	
26	1.211398e+00	9.361087e-01	1.211398e+00	-9.36109e-03	
27	1.274230e+00	9.563456e-01	1.274230e+00	-9.56346e-03	
28	1.337062e+00	9.728082e-01	1.337062e+00	-9.72808e-03	
29	1.399894e+00	9.854317e-01	1.399894e+00	-9.85432e-03	
30	1.462726e+00	9.941660e-01	1.462726e+00	-9.94166e-03	
31	1.525557e+00	9.989769e-01	1.525557e+00	-9.98977e-03	
32	1.588389e+00	9.998452e-01	1.588389e+00	-9.99845e-03	
33	1.651221e+00	9.967677e-01	1.651221e+00	-9.96768e-03	
34	1.714053e+00	9.897563e-01	1.714053e+00	-9.89756e-03	
35	1.776885e+00	9.788388e-01	1.776885e+00	-9.78839e-03	
36	1.839717e+00	9.640583e-01	1.839717e+00	-9.64058e-03	
37	1.902549e+00	9.454731e-01	1.902549e+00	-9.45473e-03	
38	1.965380e+00	9.231566e-01	1.965380e+00	-9.23157e-03	
39	2.028212e+00	8.971967e-01	2.028212e+00	-8.97197e-03	
40	2.091044e+00	8.676961e-01	2.091044e+00	-8.67696e-03	
41	2.153876e+00	8.347710e-01	2.153876e+00	-8.34771e-03	
42	2.216708e+00	7.985515e-01	2.216708e+00	-7.98551e-03	
43	2.279540e+00	7.591804e-01	2.279540e+00	-7.59180e-03	
44	2.342371e+00	7.168133e-01	2.342371e+00	-7.16813e-03	
45	2.405203e+00	6.716171e-01	2.405203e+00	-6.71617e-03	
46	2.468035e+00	6.237705e-01	2.468035e+00	-6.23770e-03	
47	2.530867e+00	5.734621e-01	2.530867e+00	-5.73462e-03	
48	2.593699e+00	5.208904e-01	2.593699e+00	-5.20890e-03	
49	2.656531e+00	4.662631e-01	2.656531e+00	-4.66263e-03	
50	2.719363e+00	4.097957e-01	2.719363e+00	-4.09796e-03	
51	2.782194e+00	3.517109e-01	2.782194e+00	-3.51711e-03	
52	2.845026e+00	2.922382e-01	2.845026e+00	-2.92238e-03	
53	2.907858e+00	2.316121e-01	2.907858e+00	-2.31612e-03	
54	2.970690e+00	1.700719e-01	2.970690e+00	-1.70072e-03	

Index   time            V(1)            time            v1#branch       
--------------------------------------------------------------------------------
55	3.033522e+00	1.078605e-01	3.033522e+00	-1.07861e-03	
56	3.096354e+00	4.522351e-02	3.096354e+00	-4.52235e-04	
57	3.159186e+00	-1.75920e-02	3.159186e+00	1.759201e-04	
58	3.222017e+00	-8.03381e-02	3.222017e+00	8.033810e-04	
59	3.284849e+00	-1.42767e-01	3.284849e+00	1.427671e-03	
60	3.347681e+00	-2.04633e-01	3.347681e+00	2.046327e-03	
61	3.410513e+00	-2.65691e-01	3.410513e+00	2.656907e-03	
62	3.473345e+00	-3.25700e-01	3.473345e+00	3.257002e-03	
63	3.536177e+00	-3.84424e-01	3.536177e+00	3.844242e-03	
64	3.599009e+00	-4.41631e-01	3.599009e+00	4.416311e-03	
65	3.661840e+00	-4.97095e-01	3.661840e+00	4.970951e-03	
66	3.724672e+00	-5.50597e-01	3.724672e+00	5.505973e-03	
67	3.787504e+00	-6.01927e-01	3.787504e+00	6.019265e-03	
68	3.850336e+00	-6.50880e-01	3.850336e+00	6.508802e-03	
69	3.913168e+00	-6.97265e-01	3.913168e+00	6.972652e-03	
70	3.976000e+00	-7.40898e-01	3.976000e+00	7.408984e-03	
71	4.038832e+00	-7.81608e-01	4.038832e+00	7.816076e-03	
72	4.101663e+00	-8.19232e-01	4.101663e+00	8.192321e-03	
73	4.164495e+00	-8.53624e-01	4.164495e+00	8.536235e-03	
74	4.227327e+00	-8.84646e-01	4.227327e+00	8.846461e-03	
75	4.290159e+00	-9.12177e-01	4.290159e+00	9.121773e-03	
76	4.352991e+00	-9.36109e-01	4.352991e+00	9.361087e-03	
77	4.415823e+00	-9.56346e-01	4.415823e+00	9.563456e-03	
78	4.478654e+00	-9.72808e-01	4.478654e+00	9.728082e-03	
79	4.541486e+00	-9.85432e-01	4.541486e+00	9.854317e-03	
80	4.604318e+00	-9.94166e-01	4.604318e+00	9.941660e-03	
81	4.667150e+00	-9.98977e-01	4.667150e+00	9.989769e-03	
82	4.729982e+00	-9.99845e-01	4.729982e+00	9.998452e-03	
83	4.792814e+00	-9.96768e-01	4.792814e+00	9.967677e-03	
84	4.855646e+00	-9.89756e-01	4.855646e+00	9.897563e-03	
85	4.918477e+00	-9.78839e-01	4.918477e+00	9.788388e-03	
86	4.981309e+00	-9.64058e-01	4.981309e+00	9.640583e-03	
87	5.044141e+00	-9.45473e-01	5.044141e+00	9.454731e-03	
88	5.106973e+00	-9.23157e-01	5.106973e+00	9.231566e-03	
89	5.169805e+00	-8.97197e-01	5.169805e+00	8.971967e-03	
90	5.232637e+00	-8.67696e-01	5.232637e+00	8.676961e-03	
91	5.295469e+00	-8.34771e-01	5.295469e+00	8.347710e-03	
92	5.358300e+00	-7.98551e-01	5.358300e+00	7.985515e-03	
93	5.421132e+00	-7.59180e-01	5.421132e+00	7.591804e-03	
94	5.483964e+00	-7.16813e-01	5.483964e+00	7.168133e-03	
95	5.546796e+00	-6.71617e-01	5.546796e+00	6.716171e-03	
96	5.609628e+00	-6.23770e-01	5.609628e+00	6.237705e-03	
97	5.672460e+00	-5.73462e-01	5.672460e+00	5.734621e-03	
98	5.735292e+00	-5.20890e-01	5.735292e+00	5.208904e-03	
99	5.798123e+00	-4.66263e-01	5.798123e+00	4.662631e-03	
100	5.860955e+00	-4.09796e-01	5.860955e+00	4.097957e-03	
101	5.923787e+00	-3.51711e-01	5.923787e+00	3.517109e-03	
102	5.986619e+00	-2.92238e-01	5.986619e+00	2.922382e-03	
103	6.049451e+00	-2.31612e-01	6.049451e+00	2.316121e-03	
104	6.112283e+00	-1.70072e-01	6.112283e+00	1.700719e-03	
105	6.175115e+00	-1.07861e-01	6.175115e+00	1.078605e-03	
106	6.237946e+00	-4.52235e-02	6.237946e+00	4.522351e-04	
107	6.283185e+00	-2.02129e-15	6.283185e+00	2.021286e-17	

                    * exemplo de netlist com fonte senoidal
                    Transient Analysis  Tue Apr 23 12:12:23  2024
--------------------------------------------------------------------------------
Index   time            x               y               
--------------------------------------------------------------------------------
0	0.000000e+00	3.141589e+00	1.588573e-03	
1	6.283185e-04					
2	1.256637e-03					
3	2.513274e-03					
4	5.026548e-03					
5	1.005310e-02					
6	2.010619e-02					
7	4.021239e-02					
8	8.042477e-02					
9	1.432566e-01					
10	2.060885e-01					
11	2.689203e-01					
12	3.317522e-01					
13	3.945840e-01					
14	4.574159e-01					
15	5.202477e-01					
16	5.830796e-01					
17	6.459114e-01					
18	7.087433e-01					
19	7.715752e-01					
20	8.344070e-01					
21	8.972389e-01					
22	9.600707e-01					
23	1.022903e+00					
24	1.085734e+00					
25	1.148566e+00					
26	1.211398e+00					
27	1.274230e+00					
28	1.337062e+00					
29	1.399894e+00					
30	1.462726e+00					
31	1.525557e+00					
32	1.588389e+00					
33	1.651221e+00					
34	1.714053e+00					
35	1.776885e+00					
36	1.839717e+00					
37	1.902549e+00					
38	1.965380e+00					
39	2.028212e+00					
40	2.091044e+00					
41	2.153876e+00					
42	2.216708e+00					
43	2.279540e+00					
44	2.342371e+00					
45	2.405203e+00					
46	2.468035e+00					
47	2.530867e+00					
48	2.593699e+00					
49	2.656531e+00					
50	2.719363e+00					
51	2.782194e+00					
52	2.845026e+00					
53	2.907858e+00					
54	2.970690e+00					

Index   time            x               y               
--------------------------------------------------------------------------------
55	3.033522e+00					
56	3.096354e+00					
57	3.159186e+00					
58	3.222017e+00					
59	3.284849e+00					
60	3.347681e+00					
61	3.410513e+00					
62	3.473345e+00					
63	3.536177e+00					
64	3.599009e+00					
65	3.661840e+00					
66	3.724672e+00					
67	3.787504e+00					
68	3.850336e+00					
69	3.913168e+00					
70	3.976000e+00					
71	4.038832e+00					
72	4.101663e+00					
73	4.164495e+00					
74	4.227327e+00					
75	4.290159e+00					
76	4.352991e+00					
77	4.415823e+00					
78	4.478654e+00					
79	4.541486e+00					
80	4.604318e+00					
81	4.667150e+00					
82	4.729982e+00					
83	4.792814e+00					
84	4.855646e+00					
85	4.918477e+00					
86	4.981309e+00					
87	5.044141e+00					
88	5.106973e+00					
89	5.169805e+00					
90	5.232637e+00					
91	5.295469e+00					
92	5.358300e+00					
93	5.421132e+00					
94	5.483964e+00					
95	5.546796e+00					
96	5.609628e+00					
97	5.672460e+00					
98	5.735292e+00					
99	5.798123e+00					
100	5.860955e+00					
101	5.923787e+00					
102	5.986619e+00					
103	6.049451e+00					
104	6.112283e+00					
105	6.175115e+00					
106	6.237946e+00					
107	6.283185e+00					
